
T1404 000:403 SEGGER J-Link V4.20p Log File (0000ms, 0398ms total)
T1404 000:403 DLL Compiled: Nov 19 2010 15:55:07 (0000ms, 0398ms total)
T1404 000:403 Logging started @ 2016-06-16 11:37 (0000ms, 0398ms total)
T1404 000:403 JLINK_SetWarnOutHandler(...) (0000ms, 0398ms total)
T1404 000:403 JLINK_OpenEx(...)
Firmware: J-Link ARM V8 compiled May 27 2009 17:31:22
Hardware: V8.00
S/N: 805306163
Feature(s): RDI,FlashDL,FlashBP,JFlash,GDBFull  returns O.K. (0139ms, 0398ms total)
T1404 000:542 JLINK_SetErrorOutHandler(...) (0000ms, 0537ms total)
T1404 000:544 JLINK_ExecCommand("ProjectFile = "D:\ARM\NXP_emWin514_MCB1700_BSP\JLinkSettings.ini"", ...)  returns 0x00 (0001ms, 0537ms total)
T1404 000:549 JLINK_ExecCommand("Device = LPC1768", ...)
                JLINK_ExecCommand("map ram 0x10000000 - 0x10007FFF", ...)  returns 0x00 (0000ms, 0000ms total)
                JLINK_AddMirrorAreaEx(Addr = 0x00000000, Size = 0x00000000) (0000ms, 0000ms total)
                returns 0x00 (0002ms, 0538ms total)
T1404 000:553 JLINK_ExecCommand("DisableConnectionTimeout", ...)  returns 0x00 (0000ms, 0540ms total)
T1404 000:553 JLINK_TIF_Select(JLINKARM_TIF_SWD)  returns 0x00 (0005ms, 0540ms total)
T1404 000:559 JLINK_SetSpeed(10000) (0002ms, 0545ms total)
T1404 000:561 JLINK_GetHardwareVersion()  returns 0x13880 (0001ms, 0547ms total)
T1404 000:562 JLINK_GetDLLVersion()  returns 42016 (0000ms, 0548ms total)
T1404 000:562 JLINK_GetFirmwareString(...) (0000ms, 0548ms total)
T1404 000:566 JLINK_GetDLLVersion()  returns 42016 (0000ms, 0548ms total)
T1404 000:566 JLINK_GetCompileDateTime() (0000ms, 0548ms total)
T1404 000:569 JLINK_GetFirmwareString(...) (0000ms, 0548ms total)
T1404 000:571 JLINK_GetHardwareVersion()  returns 0x13880 (0000ms, 0548ms total)
T1404 000:576 JLINK_GetId() >0x108 TIF>Found SWD-DP with ID 0x2BA01477 >0x33 TIF> >0x33 TIF> >0x35 TIF> >0x33 TIF> >0x35 TIF> >0x33 TIF> >0x33 TIF> >0x9B TIF> >0x9B TIF> >0x1D7 TIF> >0x13A TIF> >0x13A TIF>TPIU fitted. >0x13A TIF>ETM fitted. >0x13A TIF>  FPUnit: 6 code (BP) slots and 2 literal slots >0x13A TIF> >0x13A TIF> >0x33 TIF>  returns 0x2BA01477 (0050ms, 0548ms total)
T1404 000:626 JLINK_GetDeviceFamily()  returns 3 (0001ms, 0598ms total)
T1404 000:628 JLINK_ReadMem (0xE00FFFF0, 0x0010 Bytes, ...) -- CPU is running -- CPU_ReadMem(16 bytes @ 0xE00FFFF0) -- Data:  0D 00 00 00 10 00 00 00 05 00 00 00 B1 00 00 00  returns 0x00 (0002ms, 0599ms total)
T1404 000:630 JLINK_ReadMem (0xE00FFFD0, 0x0020 Bytes, ...) -- CPU is running -- CPU_ReadMem(32 bytes @ 0xE00FFFD0) -- Data:  00 00 00 00 00 00 00 00 00 00 00 00 00 00 00 00 ...  returns 0x00 (0002ms, 0601ms total)
T1404 000:632 JLINK_ReadMem (0xE00FF000, 0x0018 Bytes, ...) -- CPU is running -- CPU_ReadMem(24 bytes @ 0xE00FF000) -- Data:  03 F0 F0 FF 03 20 F0 FF 03 30 F0 FF 03 10 F0 FF ...  returns 0x00 (0003ms, 0603ms total)
T1404 000:635 JLINK_ReadMemU32(0xE000ED00, 0x0001 Items, ...) -- CPU is running -- CPU_ReadMem(4 bytes @ 0xE000ED00) -- Data:  30 C2 2F 41  returns 0x01 (0002ms, 0606ms total)
T1404 000:637 JLINK_SetResetType(JLINKARM_RESET_TYPE_NORMAL)  returns JLINKARM_RESET_TYPE_HALT_WP (0001ms, 0608ms total)
T1404 000:638 JLINK_Reset() >0x108 TIF>Found SWD-DP with ID 0x2BA01477 >0x33 TIF> >0x33 TIF> >0x35 TIF> >0x33 TIF> >0x35 TIF> >0x33 TIF> >0x33 TIF> >0x9B TIF> >0x9B TIF> >0x1D7 TIF> >0x13A TIF> >0x13A TIF>TPIU fitted. >0x13A TIF>ETM fitted. >0x13A TIF>  FPUnit: 6 code (BP) slots and 2 literal slots >0x13A TIF> >0x13A TIF> -- CPU_WriteMem(4 bytes @ 0xE000EDFC) -- CPU_WriteMem(4 bytes @ 0xE000EDFC) -- CPU_WriteMem(4 bytes @ 0xE000EDFC) -- CPU_WriteMem(4 bytes @ 0xE000EDFC)
 -- CPU_WriteMem(4 bytes @ 0xE000EDFC) -- CPU_WriteMem(4 bytes @ 0xE0001050) -- CPU_WriteMem(4 bytes @ 0xE0001054) -- CPU_WriteMem(4 bytes @ 0xE0001058) -- CPU_WriteMem(4 bytes @ 0xE000EDFC) -- CPU_WriteMem(4 bytes @ 0xE0001058) -- CPU_ReadMem(4 bytes @ 0x00000000) -- CPU_ReadMem(4 bytes @ 0x00000004) (0192ms, 0609ms total)
T1404 000:830 JLINK_Halt()  returns 0x00 (0001ms, 0801ms total)
T1404 000:831 JLINK_IsHalted()  returns TRUE (0000ms, 0802ms total)
T1404 000:831 JLINK_ReadMemU32(0xE000EDF0, 0x0001 Items, ...) -- CPU_ReadMem(4 bytes @ 0xE000EDF0) -- Data:  03 00 03 00  returns 0x01 (0002ms, 0802ms total)
T1404 000:833 JLINK_WriteU32(0xE000EDF0, 0xA05F0003) -- CPU_WriteMem(4 bytes @ 0xE000EDF0)  returns 0x00 (0001ms, 0804ms total)
T1404 000:834 JLINK_WriteU32(0xE000EDFC, 0x01000000) -- CPU_WriteMem(4 bytes @ 0xE000EDFC)  returns 0x00 (0001ms, 0805ms total)
T1404 000:842 JLINK_GetHWStatus(...)  returns 0x00 (0001ms, 0806ms total)
T1404 000:849 JLINK_GetNumBPUnits(Type = 0xFFFFFF00)  returns 0x06 (0000ms, 0807ms total)
T1404 000:849 JLINK_GetNumBPUnits(Type = 0xF0)  returns 0x800 (0000ms, 0807ms total)
T1404 000:849 JLINK_GetNumWPUnits()  returns 0x04 (0000ms, 0807ms total)
T1404 000:855 JLINK_GetSpeed()  returns 0x2580 (0000ms, 0807ms total)
T1404 000:858 JLINK_ReadMemU32(0xE000E004, 0x0001 Items, ...) -- CPU_ReadMem(4 bytes @ 0xE000E004) -- Data:  01 00 00 00  returns 0x01 (0002ms, 0807ms total)
T1404 000:860 JLINK_ReadMemU32(0xE000E004, 0x0001 Items, ...) -- CPU_ReadMem(4 bytes @ 0xE000E004) -- Data:  01 00 00 00  returns 0x01 (0002ms, 0809ms total)
T1404 000:862 JLINK_WriteMem(0xE0001000, 0x001C Bytes, ...) -- Data:  01 00 00 00 00 00 00 00 00 00 00 00 00 00 00 00 ... -- CPU_WriteMem(28 bytes @ 0xE0001000)  returns 0x1C (0001ms, 0811ms total)
T1404 000:863 JLINK_ReadMem (0xE0001000, 0x001C Bytes, ...) -- CPU_ReadMem(28 bytes @ 0xE0001000) -- Data:  01 00 00 40 00 00 00 00 00 00 00 00 00 00 00 00 ...  returns 0x00 (0002ms, 0812ms total)
T1404 000:865 JLINK_Halt()  returns 0x00 (0000ms, 0814ms total)
T1404 000:865 JLINK_IsHalted()  returns TRUE (0000ms, 0814ms total)
T1404 000:869 JLINK_WriteMem(0x10000000, 0x01E4 Bytes, ...) -- Data:  00 BE 0A E0 0D 78 2D 06 68 40 08 24 40 00 00 D3 ... -- CPU_WriteMem(484 bytes @ 0x10000000)  returns 0x1E4 (0004ms, 0814ms total)
T1404 000:874 JLINK_WriteReg(R0, 0x00000000)  returns 0x00 (0000ms, 0818ms total)
T1404 000:874 JLINK_WriteReg(R1, 0x00B71B00)  returns 0x00 (0000ms, 0818ms total)
T1404 000:874 JLINK_WriteReg(R2, 0x00000001)  returns 0x00 (0000ms, 0818ms total)
T1404 000:874 JLINK_WriteReg(R3, 0x00000000)  returns 0x00 (0000ms, 0818ms total)
T1404 000:874 JLINK_WriteReg(R4, 0x00000000)  returns 0x00 (0000ms, 0818ms total)
T1404 000:874 JLINK_WriteReg(R5, 0x00000000)  returns 0x00 (0000ms, 0818ms total)
T1404 000:874 JLINK_WriteReg(R6, 0x00000000)  returns 0x00 (0000ms, 0818ms total)
T1404 000:874 JLINK_WriteReg(R7, 0x00000000)  returns 0x00 (0000ms, 0818ms total)
T1404 000:874 JLINK_WriteReg(R8, 0x00000000)  returns 0x00 (0000ms, 0818ms total)
T1404 000:874 JLINK_WriteReg(R9, 0x100001DC)  returns 0x00 (0000ms, 0818ms total)
T1404 000:874 JLINK_WriteReg(R10, 0x00000000)  returns 0x00 (0000ms, 0818ms total)
T1404 000:874 JLINK_WriteReg(R11, 0x00000000)  returns 0x00 (0000ms, 0818ms total)
T1404 000:874 JLINK_WriteReg(R12, 0x00000000)  returns 0x00 (0000ms, 0818ms total)
T1404 000:874 JLINK_WriteReg(R13, 0x10000800)  returns 0x00 (0000ms, 0818ms total)
T1404 000:874 JLINK_WriteReg(R14, 0x10000001)  returns 0x00 (0000ms, 0818ms total)
T1404 000:874 JLINK_WriteReg(R15, 0x10000044)  returns 0x00 (0000ms, 0818ms total)
T1404 000:874 JLINK_WriteReg(XPSR, 0x01000000)  returns 0x00 (0000ms, 0818ms total)
T1404 000:874 JLINK_WriteReg(MSP, 0x10000800)  returns 0x00 (0000ms, 0818ms total)
T1404 000:874 JLINK_WriteReg(PSP, 0x10000800)  returns 0x00 (0000ms, 0818ms total)
T1404 000:874 JLINK_WriteReg(CFBP, 0x00000000)  returns 0x00 (0000ms, 0818ms total)
T1404 000:874 JLINK_SetBPEx(Addr = 0x10000000, Type = 0xFFFFFFF2)  returns 0x00000001 (0000ms, 0818ms total)
T1404 000:874 JLINK_Go() -- CPU_WriteMem(4 bytes @ 0xE0002000) -- CPU_WriteMem(4 bytes @ 0xE0002008) -- CPU_WriteMem(4 bytes @ 0xE000200C) -- CPU_WriteMem(4 bytes @ 0xE0002010) -- CPU_WriteMem(4 bytes @ 0xE0002014) -- CPU_WriteMem(4 bytes @ 0xE0002018) -- CPU_WriteMem(4 bytes @ 0xE000201C) (0009ms, 0818ms total)
T1404 000:883 JLINK_IsHalted()  returns TRUE (0008ms, 0827ms total)
T1404 000:891 JLINK_ReadReg(R15)  returns 0x10000000 (0001ms, 0827ms total)
T1404 000:892 JLINK_ClrBPEx(BPHandle = 0x00000001)  returns 0x00 (0000ms, 0828ms total)
T1404 000:892 JLINK_ReadReg(R0)  returns 0x00000000 (0000ms, 0828ms total)
T1404 000:892 JLINK_WriteReg(R0, 0x00000000)  returns 0x00 (0000ms, 0828ms total)
T1404 000:892 JLINK_WriteReg(R1, 0x00001000)  returns 0x00 (0000ms, 0828ms total)
T1404 000:892 JLINK_WriteReg(R2, 0x000000FF)  returns 0x00 (0000ms, 0828ms total)
T1404 000:892 JLINK_WriteReg(R3, 0x00000000)  returns 0x00 (0000ms, 0828ms total)
T1404 000:892 JLINK_WriteReg(R4, 0x00000000)  returns 0x00 (0000ms, 0828ms total)
T1404 000:892 JLINK_WriteReg(R5, 0x00000000)  returns 0x00 (0000ms, 0828ms total)
T1404 000:892 JLINK_WriteReg(R6, 0x00000000)  returns 0x00 (0000ms, 0828ms total)
T1404 000:892 JLINK_WriteReg(R7, 0x00000000)  returns 0x00 (0000ms, 0828ms total)
T1404 000:892 JLINK_WriteReg(R8, 0x00000000)  returns 0x00 (0000ms, 0828ms total)
T1404 000:892 JLINK_WriteReg(R9, 0x100001DC)  returns 0x00 (0000ms, 0828ms total)
T1404 000:892 JLINK_WriteReg(R10, 0x00000000)  returns 0x00 (0000ms, 0828ms total)
T1404 000:892 JLINK_WriteReg(R11, 0x00000000)  returns 0x00 (0000ms, 0828ms total)
T1404 000:892 JLINK_WriteReg(R12, 0x00000000)  returns 0x00 (0000ms, 0828ms total)
T1404 000:892 JLINK_WriteReg(R13, 0x10000800)  returns 0x00 (0000ms, 0828ms total)
T1404 000:892 JLINK_WriteReg(R14, 0x10000001)  returns 0x00 (0000ms, 0828ms total)
T1404 000:892 JLINK_WriteReg(R15, 0x10000020)  returns 0x00 (0000ms, 0828ms total)
T1404 000:892 JLINK_WriteReg(XPSR, 0x01000000)  returns 0x00 (0000ms, 0828ms total)
T1404 000:892 JLINK_WriteReg(MSP, 0x10000800)  returns 0x00 (0001ms, 0828ms total)
T1404 000:893 JLINK_WriteReg(PSP, 0x10000800)  returns 0x00 (0000ms, 0829ms total)
T1404 000:893 JLINK_WriteReg(CFBP, 0x00000000)  returns 0x00 (0000ms, 0829ms total)
T1404 000:893 JLINK_SetBPEx(Addr = 0x10000000, Type = 0xFFFFFFF2)  returns 0x00000002 (0000ms, 0829ms total)
T1404 000:893 JLINK_Go() -- CPU_WriteMem(4 bytes @ 0xE0002008) -- CPU_WriteMem(4 bytes @ 0xE000200C) -- CPU_WriteMem(4 bytes @ 0xE0002010) -- CPU_WriteMem(4 bytes @ 0xE0002014) -- CPU_WriteMem(4 bytes @ 0xE0002018) -- CPU_WriteMem(4 bytes @ 0xE000201C) (0007ms, 0829ms total)
T1404 000:900 JLINK_IsHalted()  returns FALSE (0001ms, 0836ms total)
T1404 000:942 JLINK_IsHalted()  returns TRUE (0008ms, 0836ms total)
T1404 000:950 JLINK_ReadReg(R15)  returns 0x10000000 (0000ms, 0836ms total)
T1404 000:950 JLINK_ClrBPEx(BPHandle = 0x00000002)  returns 0x00 (0000ms, 0836ms total)
T1404 000:951 JLINK_ReadReg(R0)  returns 0x00000000 (0000ms, 0836ms total)
T1404 000:952 JLINK_WriteReg(R0, 0x00001000)  returns 0x00 (0000ms, 0836ms total)
T1404 000:952 JLINK_WriteReg(R1, 0x00001000)  returns 0x00 (0000ms, 0836ms total)
T1404 000:952 JLINK_WriteReg(R2, 0x000000FF)  returns 0x00 (0000ms, 0836ms total)
T1404 000:952 JLINK_WriteReg(R3, 0x00000000)  returns 0x00 (0000ms, 0836ms total)
T1404 000:952 JLINK_WriteReg(R4, 0x00000000)  returns 0x00 (0000ms, 0836ms total)
T1404 000:952 JLINK_WriteReg(R5, 0x00000000)  returns 0x00 (0000ms, 0836ms total)
T1404 000:952 JLINK_WriteReg(R6, 0x00000000)  returns 0x00 (0000ms, 0836ms total)
T1404 000:952 JLINK_WriteReg(R7, 0x00000000)  returns 0x00 (0000ms, 0836ms total)
T1404 000:952 JLINK_WriteReg(R8, 0x00000000)  returns 0x00 (0000ms, 0836ms total)
T1404 000:952 JLINK_WriteReg(R9, 0x100001DC)  returns 0x00 (0000ms, 0836ms total)
T1404 000:952 JLINK_WriteReg(R10, 0x00000000)  returns 0x00 (0000ms, 0836ms total)
T1404 000:952 JLINK_WriteReg(R11, 0x00000000)  returns 0x00 (0000ms, 0836ms total)
T1404 000:952 JLINK_WriteReg(R12, 0x00000000)  returns 0x00 (0000ms, 0836ms total)
T1404 000:952 JLINK_WriteReg(R13, 0x10000800)  returns 0x00 (0000ms, 0836ms total)
T1404 000:952 JLINK_WriteReg(R14, 0x10000001)  returns 0x00 (0000ms, 0836ms total)
T1404 000:952 JLINK_WriteReg(R15, 0x10000020)  returns 0x00 (0000ms, 0836ms total)
T1404 000:952 JLINK_WriteReg(XPSR, 0x01000000)  returns 0x00 (0000ms, 0836ms total)
T1404 000:952 JLINK_WriteReg(MSP, 0x10000800)  returns 0x00 (0000ms, 0836ms total)
T1404 000:952 JLINK_WriteReg(PSP, 0x10000800)  returns 0x00 (0000ms, 0836ms total)
T1404 000:952 JLINK_WriteReg(CFBP, 0x00000000)  returns 0x00 (0000ms, 0836ms total)
T1404 000:952 JLINK_SetBPEx(Addr = 0x10000000, Type = 0xFFFFFFF2)  returns 0x00000003 (0000ms, 0836ms total)
T1404 000:952 JLINK_Go() -- CPU_WriteMem(4 bytes @ 0xE0002008) -- CPU_WriteMem(4 bytes @ 0xE000200C) -- CPU_WriteMem(4 bytes @ 0xE0002010) -- CPU_WriteMem(4 bytes @ 0xE0002014) -- CPU_WriteMem(4 bytes @ 0xE0002018) -- CPU_WriteMem(4 bytes @ 0xE000201C) (0008ms, 0836ms total)
T1404 000:960 JLINK_IsHalted()  returns TRUE (0009ms, 0844ms total)
T1404 000:969 JLINK_ReadReg(R15)  returns 0x10000000 (0000ms, 0844ms total)
T1404 000:969 JLINK_ClrBPEx(BPHandle = 0x00000003)  returns 0x00 (0000ms, 0844ms total)
T1404 000:969 JLINK_ReadReg(R0)  returns 0x00000001 (0000ms, 0844ms total)
T1404 000:969 JLINK_WriteReg(R0, 0x00001000)  returns 0x00 (0000ms, 0844ms total)
T1404 000:969 JLINK_WriteReg(R1, 0x00001000)  returns 0x00 (0000ms, 0844ms total)
T1404 000:969 JLINK_WriteReg(R2, 0x000000FF)  returns 0x00 (0000ms, 0844ms total)
T1404 000:969 JLINK_WriteReg(R3, 0x00000000)  returns 0x00 (0000ms, 0844ms total)
T1404 000:969 JLINK_WriteReg(R4, 0x00000000)  returns 0x00 (0000ms, 0844ms total)
T1404 000:969 JLINK_WriteReg(R5, 0x00000000)  returns 0x00 (0000ms, 0844ms total)
T1404 000:969 JLINK_WriteReg(R6, 0x00000000)  returns 0x00 (0000ms, 0844ms total)
T1404 000:969 JLINK_WriteReg(R7, 0x00000000)  returns 0x00 (0000ms, 0844ms total)
T1404 000:969 JLINK_WriteReg(R8, 0x00000000)  returns 0x00 (0000ms, 0844ms total)
T1404 000:969 JLINK_WriteReg(R9, 0x100001DC)  returns 0x00 (0000ms, 0844ms total)
T1404 000:969 JLINK_WriteReg(R10, 0x00000000)  returns 0x00 (0000ms, 0844ms total)
T1404 000:969 JLINK_WriteReg(R11, 0x00000000)  returns 0x00 (0000ms, 0844ms total)
T1404 000:969 JLINK_WriteReg(R12, 0x00000000)  returns 0x00 (0000ms, 0844ms total)
T1404 000:969 JLINK_WriteReg(R13, 0x10000800)  returns 0x00 (0000ms, 0844ms total)
T1404 000:969 JLINK_WriteReg(R14, 0x10000001)  returns 0x00 (0000ms, 0844ms total)
T1404 000:969 JLINK_WriteReg(R15, 0x10000110)  returns 0x00 (0000ms, 0844ms total)
T1404 000:969 JLINK_WriteReg(XPSR, 0x01000000)  returns 0x00 (0000ms, 0844ms total)
T1404 000:969 JLINK_WriteReg(MSP, 0x10000800)  returns 0x00 (0000ms, 0844ms total)
T1404 000:969 JLINK_WriteReg(PSP, 0x10000800)  returns 0x00 (0000ms, 0844ms total)
T1404 000:969 JLINK_WriteReg(CFBP, 0x00000000)  returns 0x00 (0000ms, 0844ms total)
T1404 000:969 JLINK_SetBPEx(Addr = 0x10000000, Type = 0xFFFFFFF2)  returns 0x00000004 (0000ms, 0844ms total)
T1404 000:969 JLINK_Go() -- CPU_WriteMem(4 bytes @ 0xE0002008) -- CPU_WriteMem(4 bytes @ 0xE000200C) -- CPU_WriteMem(4 bytes @ 0xE0002010) -- CPU_WriteMem(4 bytes @ 0xE0002014) -- CPU_WriteMem(4 bytes @ 0xE0002018) -- CPU_WriteMem(4 bytes @ 0xE000201C) (0008ms, 0844ms total)
T1404 000:977 JLINK_IsHalted()  returns FALSE (0001ms, 0852ms total)
T1404 000:980 JLINK_IsHalted()  returns FALSE (0000ms, 0852ms total)
T1404 000:982 JLINK_IsHalted()  returns FALSE (0000ms, 0852ms total)
T1404 000:984 JLINK_IsHalted()  returns FALSE (0001ms, 0852ms total)
T1404 000:987 JLINK_IsHalted()  returns FALSE (0000ms, 0852ms total)
T1404 000:989 JLINK_IsHalted()  returns FALSE (0000ms, 0852ms total)
T1404 000:991 JLINK_IsHalted()  returns FALSE (0000ms, 0852ms total)
T1404 000:993 JLINK_IsHalted()  returns FALSE (0000ms, 0852ms total)
T1404 000:995 JLINK_IsHalted()  returns FALSE (0000ms, 0852ms total)
T1404 000:997 JLINK_IsHalted()  returns FALSE (0000ms, 0852ms total)
T1404 000:999 JLINK_IsHalted()  returns FALSE (0000ms, 0852ms total)
T1404 001:001 JLINK_IsHalted()  returns FALSE (0002ms, 0852ms total)
T1404 001:006 JLINK_IsHalted()  returns FALSE (0000ms, 0852ms total)
T1404 001:008 JLINK_IsHalted()  returns FALSE (0000ms, 0852ms total)
T1404 001:010 JLINK_IsHalted()  returns FALSE (0000ms, 0852ms total)
T1404 001:012 JLINK_IsHalted()  returns FALSE (0000ms, 0852ms total)
T1404 001:014 JLINK_IsHalted()  returns FALSE (0000ms, 0852ms total)
T1404 001:016 JLINK_IsHalted()  returns FALSE (0001ms, 0852ms total)
T1404 001:027 JLINK_IsHalted()  returns FALSE (0001ms, 0852ms total)
T1404 001:030 JLINK_IsHalted()  returns FALSE (0000ms, 0852ms total)
T1404 001:032 JLINK_IsHalted()  returns FALSE (0000ms, 0852ms total)
T1404 001:036 JLINK_IsHalted()  returns FALSE (0001ms, 0852ms total)
T1404 001:039 JLINK_IsHalted()  returns FALSE (0000ms, 0852ms total)
T1404 001:041 JLINK_IsHalted()  returns FALSE (0000ms, 0852ms total)
T1404 001:043 JLINK_IsHalted()  returns FALSE (0000ms, 0852ms total)
T1404 001:045 JLINK_IsHalted()  returns FALSE (0000ms, 0852ms total)
T1404 001:047 JLINK_IsHalted()  returns FALSE (0000ms, 0852ms total)
T1404 001:050 JLINK_IsHalted()  returns FALSE (0001ms, 0852ms total)
T1404 001:053 JLINK_IsHalted()  returns FALSE (0000ms, 0852ms total)
T1404 001:055 JLINK_IsHalted()  returns FALSE (0000ms, 0852ms total)
T1404 001:057 JLINK_IsHalted()  returns FALSE (0000ms, 0852ms total)
T1404 001:059 JLINK_IsHalted()  returns FALSE (0000ms, 0852ms total)
T1404 001:061 JLINK_IsHalted()  returns FALSE (0000ms, 0852ms total)
T1404 001:063 JLINK_IsHalted()  returns FALSE (0000ms, 0852ms total)
T1404 001:065 JLINK_IsHalted()  returns FALSE (0002ms, 0852ms total)
T1404 001:068 JLINK_IsHalted()  returns FALSE (0001ms, 0852ms total)
T1404 001:071 JLINK_IsHalted()  returns FALSE (0000ms, 0852ms total)
T1404 001:073 JLINK_IsHalted()  returns FALSE (0000ms, 0852ms total)
T1404 001:075 JLINK_IsHalted()  returns FALSE (0000ms, 0852ms total)
T1404 001:077 JLINK_IsHalted()  returns FALSE (0000ms, 0852ms total)
T1404 001:079 JLINK_IsHalted()  returns TRUE (0007ms, 0852ms total)
T1404 001:086 JLINK_ReadReg(R15)  returns 0x10000000 (0000ms, 0852ms total)
T1404 001:086 JLINK_ClrBPEx(BPHandle = 0x00000004)  returns 0x00 (0001ms, 0852ms total)
T1404 001:087 JLINK_ReadReg(R0)  returns 0x00000000 (0000ms, 0853ms total)
T1404 001:087 JLINK_WriteReg(R0, 0x00002000)  returns 0x00 (0000ms, 0853ms total)
T1404 001:087 JLINK_WriteReg(R1, 0x00001000)  returns 0x00 (0000ms, 0853ms total)
T1404 001:087 JLINK_WriteReg(R2, 0x000000FF)  returns 0x00 (0000ms, 0853ms total)
T1404 001:087 JLINK_WriteReg(R3, 0x00000000)  returns 0x00 (0000ms, 0853ms total)
T1404 001:087 JLINK_WriteReg(R4, 0x00000000)  returns 0x00 (0000ms, 0853ms total)
T1404 001:087 JLINK_WriteReg(R5, 0x00000000)  returns 0x00 (0000ms, 0853ms total)
T1404 001:087 JLINK_WriteReg(R6, 0x00000000)  returns 0x00 (0000ms, 0853ms total)
T1404 001:087 JLINK_WriteReg(R7, 0x00000000)  returns 0x00 (0000ms, 0853ms total)
T1404 001:087 JLINK_WriteReg(R8, 0x00000000)  returns 0x00 (0000ms, 0853ms total)
T1404 001:087 JLINK_WriteReg(R9, 0x100001DC)  returns 0x00 (0000ms, 0853ms total)
T1404 001:087 JLINK_WriteReg(R10, 0x00000000)  returns 0x00 (0001ms, 0853ms total)
T1404 001:088 JLINK_WriteReg(R11, 0x00000000)  returns 0x00 (0000ms, 0854ms total)
T1404 001:088 JLINK_WriteReg(R12, 0x00000000)  returns 0x00 (0000ms, 0854ms total)
T1404 001:088 JLINK_WriteReg(R13, 0x10000800)  returns 0x00 (0000ms, 0854ms total)
T1404 001:088 JLINK_WriteReg(R14, 0x10000001)  returns 0x00 (0000ms, 0854ms total)
T1404 001:088 JLINK_WriteReg(R15, 0x10000020)  returns 0x00 (0000ms, 0854ms total)
T1404 001:088 JLINK_WriteReg(XPSR, 0x01000000)  returns 0x00 (0000ms, 0854ms total)
T1404 001:088 JLINK_WriteReg(MSP, 0x10000800)  returns 0x00 (0000ms, 0854ms total)
T1404 001:088 JLINK_WriteReg(PSP, 0x10000800)  returns 0x00 (0000ms, 0854ms total)
T1404 001:088 JLINK_WriteReg(CFBP, 0x00000000)  returns 0x00 (0000ms, 0854ms total)
T1404 001:088 JLINK_SetBPEx(Addr = 0x10000000, Type = 0xFFFFFFF2)  returns 0x00000005 (0000ms, 0854ms total)
T1404 001:088 JLINK_Go() -- CPU_WriteMem(4 bytes @ 0xE0002008) -- CPU_WriteMem(4 bytes @ 0xE000200C) -- CPU_WriteMem(4 bytes @ 0xE0002010) -- CPU_WriteMem(4 bytes @ 0xE0002014) -- CPU_WriteMem(4 bytes @ 0xE0002018) -- CPU_WriteMem(4 bytes @ 0xE000201C) (0011ms, 0854ms total)
T1404 001:099 JLINK_IsHalted()  returns TRUE (0009ms, 0865ms total)
T1404 001:108 JLINK_ReadReg(R15)  returns 0x10000000 (0000ms, 0865ms total)
T1404 001:108 JLINK_ClrBPEx(BPHandle = 0x00000005)  returns 0x00 (0000ms, 0865ms total)
T1404 001:108 JLINK_ReadReg(R0)  returns 0x00000001 (0000ms, 0865ms total)
T1404 001:109 JLINK_WriteReg(R0, 0x00002000)  returns 0x00 (0000ms, 0866ms total)
T1404 001:109 JLINK_WriteReg(R1, 0x00001000)  returns 0x00 (0000ms, 0866ms total)
T1404 001:109 JLINK_WriteReg(R2, 0x000000FF)  returns 0x00 (0000ms, 0866ms total)
T1404 001:109 JLINK_WriteReg(R3, 0x00000000)  returns 0x00 (0000ms, 0866ms total)
T1404 001:109 JLINK_WriteReg(R4, 0x00000000)  returns 0x00 (0000ms, 0866ms total)
T1404 001:109 JLINK_WriteReg(R5, 0x00000000)  returns 0x00 (0000ms, 0866ms total)
T1404 001:109 JLINK_WriteReg(R6, 0x00000000)  returns 0x00 (0000ms, 0866ms total)
T1404 001:109 JLINK_WriteReg(R7, 0x00000000)  returns 0x00 (0000ms, 0866ms total)
T1404 001:109 JLINK_WriteReg(R8, 0x00000000)  returns 0x00 (0000ms, 0866ms total)
T1404 001:109 JLINK_WriteReg(R9, 0x100001DC)  returns 0x00 (0000ms, 0866ms total)
T1404 001:109 JLINK_WriteReg(R10, 0x00000000)  returns 0x00 (0000ms, 0866ms total)
T1404 001:109 JLINK_WriteReg(R11, 0x00000000)  returns 0x00 (0000ms, 0866ms total)
T1404 001:109 JLINK_WriteReg(R12, 0x00000000)  returns 0x00 (0000ms, 0866ms total)
T1404 001:109 JLINK_WriteReg(R13, 0x10000800)  returns 0x00 (0000ms, 0866ms total)
T1404 001:109 JLINK_WriteReg(R14, 0x10000001)  returns 0x00 (0000ms, 0866ms total)
T1404 001:109 JLINK_WriteReg(R15, 0x10000110)  returns 0x00 (0000ms, 0866ms total)
T1404 001:109 JLINK_WriteReg(XPSR, 0x01000000)  returns 0x00 (0000ms, 0866ms total)
T1404 001:109 JLINK_WriteReg(MSP, 0x10000800)  returns 0x00 (0000ms, 0866ms total)
T1404 001:109 JLINK_WriteReg(PSP, 0x10000800)  returns 0x00 (0000ms, 0866ms total)
T1404 001:109 JLINK_WriteReg(CFBP, 0x00000000)  returns 0x00 (0000ms, 0866ms total)
T1404 001:109 JLINK_SetBPEx(Addr = 0x10000000, Type = 0xFFFFFFF2)  returns 0x00000006 (0000ms, 0866ms total)
T1404 001:109 JLINK_Go() -- CPU_WriteMem(4 bytes @ 0xE0002008) -- CPU_WriteMem(4 bytes @ 0xE000200C) -- CPU_WriteMem(4 bytes @ 0xE0002010) -- CPU_WriteMem(4 bytes @ 0xE0002014) -- CPU_WriteMem(4 bytes @ 0xE0002018) -- CPU_WriteMem(4 bytes @ 0xE000201C) (0008ms, 0866ms total)
T1404 001:117 JLINK_IsHalted()  returns FALSE (0001ms, 0874ms total)
T1404 001:121 JLINK_IsHalted()  returns FALSE (0001ms, 0874ms total)
T1404 001:124 JLINK_IsHalted()  returns FALSE (0000ms, 0874ms total)
T1404 001:126 JLINK_IsHalted()  returns FALSE (0000ms, 0874ms total)
T1404 001:128 JLINK_IsHalted()  returns FALSE (0000ms, 0874ms total)
T1404 001:138 JLINK_IsHalted()  returns FALSE (0001ms, 0874ms total)
T1404 001:143 JLINK_IsHalted()  returns FALSE (0001ms, 0874ms total)
T1404 001:146 JLINK_IsHalted()  returns FALSE (0000ms, 0874ms total)
T1404 001:148 JLINK_IsHalted()  returns FALSE (0000ms, 0874ms total)
T1404 001:150 JLINK_IsHalted()  returns FALSE (0000ms, 0874ms total)
T1404 001:152 JLINK_IsHalted()  returns FALSE (0000ms, 0874ms total)
T1404 001:154 JLINK_IsHalted()  returns FALSE (0000ms, 0874ms total)
T1404 001:156 JLINK_IsHalted()  returns FALSE (0000ms, 0874ms total)
T1404 001:158 JLINK_IsHalted()  returns FALSE (0001ms, 0874ms total)
T1404 001:161 JLINK_IsHalted()  returns FALSE (0001ms, 0874ms total)
T1404 001:164 JLINK_IsHalted()  returns FALSE (0000ms, 0874ms total)
T1404 001:166 JLINK_IsHalted()  returns FALSE (0001ms, 0874ms total)
T1404 001:168 JLINK_IsHalted()  returns FALSE (0001ms, 0874ms total)
T1404 001:171 JLINK_IsHalted()  returns FALSE (0000ms, 0874ms total)
T1404 001:173 JLINK_IsHalted()  returns FALSE (0000ms, 0874ms total)
T1404 001:175 JLINK_IsHalted()  returns FALSE (0000ms, 0874ms total)
T1404 001:177 JLINK_IsHalted()  returns FALSE (0000ms, 0874ms total)
T1404 001:179 JLINK_IsHalted()  returns FALSE (0000ms, 0874ms total)
T1404 001:181 JLINK_IsHalted()  returns FALSE (0000ms, 0874ms total)
T1404 001:183 JLINK_IsHalted()  returns FALSE (0000ms, 0874ms total)
T1404 001:185 JLINK_IsHalted()  returns FALSE (0000ms, 0874ms total)
T1404 001:187 JLINK_IsHalted()  returns FALSE (0000ms, 0874ms total)
T1404 001:189 JLINK_IsHalted()  returns FALSE (0000ms, 0874ms total)
T1404 001:191 JLINK_IsHalted()  returns FALSE (0000ms, 0874ms total)
T1404 001:193 JLINK_IsHalted()  returns FALSE (0001ms, 0874ms total)
T1404 001:196 JLINK_IsHalted()  returns FALSE (0000ms, 0874ms total)
T1404 001:198 JLINK_IsHalted()  returns FALSE (0000ms, 0874ms total)
T1404 001:200 JLINK_IsHalted()  returns FALSE (0000ms, 0874ms total)
T1404 001:202 JLINK_IsHalted()  returns FALSE (0000ms, 0874ms total)
T1404 001:204 JLINK_IsHalted()  returns FALSE (0000ms, 0874ms total)
T1404 001:206 JLINK_IsHalted()  returns FALSE (0000ms, 0874ms total)
T1404 001:208 JLINK_IsHalted()  returns FALSE (0000ms, 0874ms total)
T1404 001:210 JLINK_IsHalted()  returns FALSE (0000ms, 0874ms total)
T1404 001:212 JLINK_IsHalted()  returns FALSE (0000ms, 0874ms total)
T1404 001:214 JLINK_IsHalted()  returns FALSE (0000ms, 0874ms total)
T1404 001:216 JLINK_IsHalted()  returns FALSE (0001ms, 0874ms total)
T1404 001:218 JLINK_IsHalted()  returns TRUE (0008ms, 0874ms total)
T1404 001:226 JLINK_ReadReg(R15)  returns 0x10000000 (0000ms, 0874ms total)
T1404 001:226 JLINK_ClrBPEx(BPHandle = 0x00000006)  returns 0x00 (0001ms, 0874ms total)
T1404 001:227 JLINK_ReadReg(R0)  returns 0x00000000 (0000ms, 0875ms total)
T1404 001:227 JLINK_WriteReg(R0, 0x00003000)  returns 0x00 (0000ms, 0875ms total)
T1404 001:227 JLINK_WriteReg(R1, 0x00001000)  returns 0x00 (0000ms, 0875ms total)
T1404 001:227 JLINK_WriteReg(R2, 0x000000FF)  returns 0x00 (0000ms, 0875ms total)
T1404 001:227 JLINK_WriteReg(R3, 0x00000000)  returns 0x00 (0000ms, 0875ms total)
T1404 001:227 JLINK_WriteReg(R4, 0x00000000)  returns 0x00 (0000ms, 0875ms total)
T1404 001:227 JLINK_WriteReg(R5, 0x00000000)  returns 0x00 (0000ms, 0875ms total)
T1404 001:227 JLINK_WriteReg(R6, 0x00000000)  returns 0x00 (0000ms, 0875ms total)
T1404 001:227 JLINK_WriteReg(R7, 0x00000000)  returns 0x00 (0000ms, 0875ms total)
T1404 001:227 JLINK_WriteReg(R8, 0x00000000)  returns 0x00 (0000ms, 0875ms total)
T1404 001:227 JLINK_WriteReg(R9, 0x100001DC)  returns 0x00 (0000ms, 0875ms total)
T1404 001:227 JLINK_WriteReg(R10, 0x00000000)  returns 0x00 (0000ms, 0875ms total)
T1404 001:227 JLINK_WriteReg(R11, 0x00000000)  returns 0x00 (0000ms, 0875ms total)
T1404 001:228 JLINK_WriteReg(R12, 0x00000000)  returns 0x00 (0000ms, 0876ms total)
T1404 001:228 JLINK_WriteReg(R13, 0x10000800)  returns 0x00 (0000ms, 0876ms total)
T1404 001:228 JLINK_WriteReg(R14, 0x10000001)  returns 0x00 (0000ms, 0876ms total)
T1404 001:228 JLINK_WriteReg(R15, 0x10000020)  returns 0x00 (0000ms, 0876ms total)
T1404 001:228 JLINK_WriteReg(XPSR, 0x01000000)  returns 0x00 (0000ms, 0876ms total)
T1404 001:228 JLINK_WriteReg(MSP, 0x10000800)  returns 0x00 (0000ms, 0876ms total)
T1404 001:228 JLINK_WriteReg(PSP, 0x10000800)  returns 0x00 (0000ms, 0876ms total)
T1404 001:228 JLINK_WriteReg(CFBP, 0x00000000)  returns 0x00 (0000ms, 0876ms total)
T1404 001:228 JLINK_SetBPEx(Addr = 0x10000000, Type = 0xFFFFFFF2)  returns 0x00000007 (0000ms, 0876ms total)
T1404 001:228 JLINK_Go() -- CPU_WriteMem(4 bytes @ 0xE0002008) -- CPU_WriteMem(4 bytes @ 0xE000200C) -- CPU_WriteMem(4 bytes @ 0xE0002010) -- CPU_WriteMem(4 bytes @ 0xE0002014) -- CPU_WriteMem(4 bytes @ 0xE0002018) -- CPU_WriteMem(4 bytes @ 0xE000201C) (0009ms, 0876ms total)
T1404 001:237 JLINK_IsHalted()  returns TRUE (0008ms, 0885ms total)
T1404 001:245 JLINK_ReadReg(R15)  returns 0x10000000 (0000ms, 0885ms total)
T1404 001:245 JLINK_ClrBPEx(BPHandle = 0x00000007)  returns 0x00 (0001ms, 0885ms total)
T1404 001:246 JLINK_ReadReg(R0)  returns 0x00000001 (0000ms, 0886ms total)
T1404 001:246 JLINK_WriteReg(R0, 0x00003000)  returns 0x00 (0000ms, 0886ms total)
T1404 001:246 JLINK_WriteReg(R1, 0x00001000)  returns 0x00 (0000ms, 0886ms total)
T1404 001:246 JLINK_WriteReg(R2, 0x000000FF)  returns 0x00 (0000ms, 0886ms total)
T1404 001:246 JLINK_WriteReg(R3, 0x00000000)  returns 0x00 (0000ms, 0886ms total)
T1404 001:246 JLINK_WriteReg(R4, 0x00000000)  returns 0x00 (0000ms, 0886ms total)
T1404 001:246 JLINK_WriteReg(R5, 0x00000000)  returns 0x00 (0000ms, 0886ms total)
T1404 001:246 JLINK_WriteReg(R6, 0x00000000)  returns 0x00 (0000ms, 0886ms total)
T1404 001:246 JLINK_WriteReg(R7, 0x00000000)  returns 0x00 (0000ms, 0886ms total)
T1404 001:246 JLINK_WriteReg(R8, 0x00000000)  returns 0x00 (0000ms, 0886ms total)
T1404 001:246 JLINK_WriteReg(R9, 0x100001DC)  returns 0x00 (0000ms, 0886ms total)
T1404 001:246 JLINK_WriteReg(R10, 0x00000000)  returns 0x00 (0000ms, 0886ms total)
T1404 001:246 JLINK_WriteReg(R11, 0x00000000)  returns 0x00 (0000ms, 0886ms total)
T1404 001:246 JLINK_WriteReg(R12, 0x00000000)  returns 0x00 (0000ms, 0886ms total)
T1404 001:246 JLINK_WriteReg(R13, 0x10000800)  returns 0x00 (0000ms, 0886ms total)
T1404 001:246 JLINK_WriteReg(R14, 0x10000001)  returns 0x00 (0000ms, 0886ms total)
T1404 001:246 JLINK_WriteReg(R15, 0x10000110)  returns 0x00 (0000ms, 0886ms total)
T1404 001:246 JLINK_WriteReg(XPSR, 0x01000000)  returns 0x00 (0000ms, 0886ms total)
T1404 001:246 JLINK_WriteReg(MSP, 0x10000800)  returns 0x00 (0000ms, 0886ms total)
T1404 001:246 JLINK_WriteReg(PSP, 0x10000800)  returns 0x00 (0000ms, 0886ms total)
T1404 001:246 JLINK_WriteReg(CFBP, 0x00000000)  returns 0x00 (0000ms, 0886ms total)
T1404 001:246 JLINK_SetBPEx(Addr = 0x10000000, Type = 0xFFFFFFF2)  returns 0x00000008 (0000ms, 0886ms total)
T1404 001:246 JLINK_Go() -- CPU_WriteMem(4 bytes @ 0xE0002008) -- CPU_WriteMem(4 bytes @ 0xE000200C) -- CPU_WriteMem(4 bytes @ 0xE0002010) -- CPU_WriteMem(4 bytes @ 0xE0002014) -- CPU_WriteMem(4 bytes @ 0xE0002018) -- CPU_WriteMem(4 bytes @ 0xE000201C) (0009ms, 0886ms total)
T1404 001:255 JLINK_IsHalted()  returns FALSE (0001ms, 0895ms total)
T1404 001:267 JLINK_IsHalted()  returns FALSE (0000ms, 0895ms total)
T1404 001:270 JLINK_IsHalted()  returns FALSE (0001ms, 0895ms total)
T1404 001:273 JLINK_IsHalted()  returns FALSE (0000ms, 0895ms total)
T1404 001:275 JLINK_IsHalted()  returns FALSE (0000ms, 0895ms total)
T1404 001:277 JLINK_IsHalted()  returns FALSE (0000ms, 0895ms total)
T1404 001:279 JLINK_IsHalted()  returns FALSE (0000ms, 0895ms total)
T1404 001:281 JLINK_IsHalted()  returns FALSE (0000ms, 0895ms total)
T1404 001:283 JLINK_IsHalted()  returns FALSE (0000ms, 0895ms total)
T1404 001:285 JLINK_IsHalted()  returns FALSE (0000ms, 0895ms total)
T1404 001:287 JLINK_IsHalted()  returns FALSE (0000ms, 0895ms total)
T1404 001:289 JLINK_IsHalted()  returns FALSE (0001ms, 0895ms total)
T1404 001:292 JLINK_IsHalted()  returns FALSE (0000ms, 0895ms total)
T1404 001:294 JLINK_IsHalted()  returns FALSE (0000ms, 0895ms total)
T1404 001:296 JLINK_IsHalted()  returns FALSE (0000ms, 0895ms total)
T1404 001:298 JLINK_IsHalted()  returns FALSE (0000ms, 0895ms total)
T1404 001:300 JLINK_IsHalted()  returns FALSE (0000ms, 0895ms total)
T1404 001:302 JLINK_IsHalted()  returns FALSE (0000ms, 0895ms total)
T1404 001:304 JLINK_IsHalted()  returns FALSE (0000ms, 0895ms total)
T1404 001:306 JLINK_IsHalted()  returns FALSE (0000ms, 0895ms total)
T1404 001:308 JLINK_IsHalted()  returns FALSE (0000ms, 0895ms total)
T1404 001:310 JLINK_IsHalted()  returns FALSE (0000ms, 0895ms total)
T1404 001:312 JLINK_IsHalted()  returns FALSE (0000ms, 0895ms total)
T1404 001:314 JLINK_IsHalted()  returns FALSE (0000ms, 0895ms total)
T1404 001:316 JLINK_IsHalted()  returns FALSE (0001ms, 0895ms total)
T1404 001:318 JLINK_IsHalted()  returns FALSE (0001ms, 0895ms total)
T1404 001:321 JLINK_IsHalted()  returns FALSE (0001ms, 0895ms total)
T1404 001:324 JLINK_IsHalted()  returns FALSE (0000ms, 0895ms total)
T1404 001:326 JLINK_IsHalted()  returns FALSE (0000ms, 0895ms total)
T1404 001:328 JLINK_IsHalted()  returns FALSE (0000ms, 0895ms total)
T1404 001:330 JLINK_IsHalted()  returns FALSE (0000ms, 0895ms total)
T1404 001:332 JLINK_IsHalted()  returns FALSE (0000ms, 0895ms total)
T1404 001:334 JLINK_IsHalted()  returns FALSE (0000ms, 0895ms total)
T1404 001:336 JLINK_IsHalted()  returns FALSE (0000ms, 0895ms total)
T1404 001:338 JLINK_IsHalted()  returns FALSE (0000ms, 0895ms total)
T1404 001:340 JLINK_IsHalted()  returns FALSE (0000ms, 0895ms total)
T1404 001:342 JLINK_IsHalted()  returns FALSE (0000ms, 0895ms total)
T1404 001:344 JLINK_IsHalted()  returns FALSE (0001ms, 0895ms total)
T1404 001:355 JLINK_IsHalted()  returns TRUE (0008ms, 0895ms total)
T1404 001:363 JLINK_ReadReg(R15)  returns 0x10000000 (0000ms, 0895ms total)
T1404 001:363 JLINK_ClrBPEx(BPHandle = 0x00000008)  returns 0x00 (0000ms, 0895ms total)
T1404 001:364 JLINK_ReadReg(R0)  returns 0x00000000 (0000ms, 0895ms total)
T1404 001:364 JLINK_WriteReg(R0, 0x00004000)  returns 0x00 (0000ms, 0895ms total)
T1404 001:364 JLINK_WriteReg(R1, 0x00001000)  returns 0x00 (0000ms, 0895ms total)
T1404 001:364 JLINK_WriteReg(R2, 0x000000FF)  returns 0x00 (0000ms, 0895ms total)
T1404 001:364 JLINK_WriteReg(R3, 0x00000000)  returns 0x00 (0000ms, 0895ms total)
T1404 001:364 JLINK_WriteReg(R4, 0x00000000)  returns 0x00 (0000ms, 0895ms total)
T1404 001:364 JLINK_WriteReg(R5, 0x00000000)  returns 0x00 (0000ms, 0895ms total)
T1404 001:364 JLINK_WriteReg(R6, 0x00000000)  returns 0x00 (0000ms, 0895ms total)
T1404 001:364 JLINK_WriteReg(R7, 0x00000000)  returns 0x00 (0000ms, 0895ms total)
T1404 001:364 JLINK_WriteReg(R8, 0x00000000)  returns 0x00 (0000ms, 0895ms total)
T1404 001:364 JLINK_WriteReg(R9, 0x100001DC)  returns 0x00 (0000ms, 0895ms total)
T1404 001:364 JLINK_WriteReg(R10, 0x00000000)  returns 0x00 (0000ms, 0895ms total)
T1404 001:364 JLINK_WriteReg(R11, 0x00000000)  returns 0x00 (0000ms, 0895ms total)
T1404 001:364 JLINK_WriteReg(R12, 0x00000000)  returns 0x00 (0001ms, 0895ms total)
T1404 001:365 JLINK_WriteReg(R13, 0x10000800)  returns 0x00 (0000ms, 0896ms total)
T1404 001:365 JLINK_WriteReg(R14, 0x10000001)  returns 0x00 (0000ms, 0896ms total)
T1404 001:365 JLINK_WriteReg(R15, 0x10000020)  returns 0x00 (0000ms, 0896ms total)
T1404 001:365 JLINK_WriteReg(XPSR, 0x01000000)  returns 0x00 (0000ms, 0896ms total)
T1404 001:365 JLINK_WriteReg(MSP, 0x10000800)  returns 0x00 (0000ms, 0896ms total)
T1404 001:365 JLINK_WriteReg(PSP, 0x10000800)  returns 0x00 (0000ms, 0896ms total)
T1404 001:365 JLINK_WriteReg(CFBP, 0x00000000)  returns 0x00 (0000ms, 0896ms total)
T1404 001:365 JLINK_SetBPEx(Addr = 0x10000000, Type = 0xFFFFFFF2)  returns 0x00000009 (0000ms, 0896ms total)
T1404 001:365 JLINK_Go() -- CPU_WriteMem(4 bytes @ 0xE0002008) -- CPU_WriteMem(4 bytes @ 0xE000200C) -- CPU_WriteMem(4 bytes @ 0xE0002010) -- CPU_WriteMem(4 bytes @ 0xE0002014) -- CPU_WriteMem(4 bytes @ 0xE0002018) -- CPU_WriteMem(4 bytes @ 0xE000201C) (0008ms, 0896ms total)
T1404 001:373 JLINK_IsHalted()  returns TRUE (0008ms, 0904ms total)
T1404 001:381 JLINK_ReadReg(R15)  returns 0x10000000 (0000ms, 0904ms total)
T1404 001:381 JLINK_ClrBPEx(BPHandle = 0x00000009)  returns 0x00 (0001ms, 0904ms total)
T1404 001:382 JLINK_ReadReg(R0)  returns 0x00000001 (0000ms, 0905ms total)
T1404 001:382 JLINK_WriteReg(R0, 0x00004000)  returns 0x00 (0000ms, 0905ms total)
T1404 001:382 JLINK_WriteReg(R1, 0x00001000)  returns 0x00 (0000ms, 0905ms total)
T1404 001:382 JLINK_WriteReg(R2, 0x000000FF)  returns 0x00 (0000ms, 0905ms total)
T1404 001:382 JLINK_WriteReg(R3, 0x00000000)  returns 0x00 (0000ms, 0905ms total)
T1404 001:382 JLINK_WriteReg(R4, 0x00000000)  returns 0x00 (0000ms, 0905ms total)
T1404 001:382 JLINK_WriteReg(R5, 0x00000000)  returns 0x00 (0000ms, 0905ms total)
T1404 001:382 JLINK_WriteReg(R6, 0x00000000)  returns 0x00 (0000ms, 0905ms total)
T1404 001:382 JLINK_WriteReg(R7, 0x00000000)  returns 0x00 (0000ms, 0905ms total)
T1404 001:382 JLINK_WriteReg(R8, 0x00000000)  returns 0x00 (0000ms, 0905ms total)
T1404 001:382 JLINK_WriteReg(R9, 0x100001DC)  returns 0x00 (0000ms, 0905ms total)
T1404 001:382 JLINK_WriteReg(R10, 0x00000000)  returns 0x00 (0000ms, 0905ms total)
T1404 001:382 JLINK_WriteReg(R11, 0x00000000)  returns 0x00 (0000ms, 0905ms total)
T1404 001:382 JLINK_WriteReg(R12, 0x00000000)  returns 0x00 (0000ms, 0905ms total)
T1404 001:382 JLINK_WriteReg(R13, 0x10000800)  returns 0x00 (0000ms, 0905ms total)
T1404 001:382 JLINK_WriteReg(R14, 0x10000001)  returns 0x00 (0000ms, 0905ms total)
T1404 001:382 JLINK_WriteReg(R15, 0x10000110)  returns 0x00 (0000ms, 0905ms total)
T1404 001:382 JLINK_WriteReg(XPSR, 0x01000000)  returns 0x00 (0000ms, 0905ms total)
T1404 001:382 JLINK_WriteReg(MSP, 0x10000800)  returns 0x00 (0000ms, 0905ms total)
T1404 001:382 JLINK_WriteReg(PSP, 0x10000800)  returns 0x00 (0000ms, 0905ms total)
T1404 001:382 JLINK_WriteReg(CFBP, 0x00000000)  returns 0x00 (0000ms, 0905ms total)
T1404 001:382 JLINK_SetBPEx(Addr = 0x10000000, Type = 0xFFFFFFF2)  returns 0x0000000A (0000ms, 0905ms total)
T1404 001:382 JLINK_Go() -- CPU_WriteMem(4 bytes @ 0xE0002008) -- CPU_WriteMem(4 bytes @ 0xE000200C) -- CPU_WriteMem(4 bytes @ 0xE0002010) -- CPU_WriteMem(4 bytes @ 0xE0002014) -- CPU_WriteMem(4 bytes @ 0xE0002018) -- CPU_WriteMem(4 bytes @ 0xE000201C) (0008ms, 0905ms total)
T1404 001:390 JLINK_IsHalted()  returns FALSE (0001ms, 0913ms total)
T1404 001:396 JLINK_IsHalted()  returns FALSE (0000ms, 0913ms total)
T1404 001:398 JLINK_IsHalted()  returns FALSE (0000ms, 0913ms total)
T1404 001:400 JLINK_IsHalted()  returns FALSE (0000ms, 0913ms total)
T1404 001:402 JLINK_IsHalted()  returns FALSE (0000ms, 0913ms total)
T1404 001:404 JLINK_IsHalted()  returns FALSE (0000ms, 0913ms total)
T1404 001:406 JLINK_IsHalted()  returns FALSE (0000ms, 0913ms total)
T1404 001:408 JLINK_IsHalted()  returns FALSE (0000ms, 0913ms total)
T1404 001:410 JLINK_IsHalted()  returns FALSE (0000ms, 0913ms total)
T1404 001:412 JLINK_IsHalted()  returns FALSE (0000ms, 0913ms total)
T1404 001:414 JLINK_IsHalted()  returns FALSE (0000ms, 0913ms total)
T1404 001:416 JLINK_IsHalted()  returns FALSE (0000ms, 0913ms total)
T1404 001:418 JLINK_IsHalted()  returns FALSE (0000ms, 0913ms total)
T1404 001:420 JLINK_IsHalted()  returns FALSE (0000ms, 0913ms total)
T1404 001:422 JLINK_IsHalted()  returns FALSE (0000ms, 0913ms total)
T1404 001:424 JLINK_IsHalted()  returns FALSE (0000ms, 0913ms total)
T1404 001:426 JLINK_IsHalted()  returns FALSE (0000ms, 0913ms total)
T1404 001:428 JLINK_IsHalted()  returns FALSE (0000ms, 0913ms total)
T1404 001:430 JLINK_IsHalted()  returns FALSE (0000ms, 0913ms total)
T1404 001:432 JLINK_IsHalted()  returns FALSE (0000ms, 0913ms total)
T1404 001:434 JLINK_IsHalted()  returns FALSE (0000ms, 0913ms total)
T1404 001:436 JLINK_IsHalted()  returns FALSE (0000ms, 0913ms total)
T1404 001:438 JLINK_IsHalted()  returns FALSE (0000ms, 0913ms total)
T1404 001:441 JLINK_IsHalted()  returns FALSE (0001ms, 0913ms total)
T1404 001:444 JLINK_IsHalted()  returns FALSE (0000ms, 0913ms total)
T1404 001:446 JLINK_IsHalted()  returns FALSE (0000ms, 0913ms total)
T1404 001:448 JLINK_IsHalted()  returns FALSE (0000ms, 0913ms total)
T1404 001:450 JLINK_IsHalted()  returns FALSE (0000ms, 0913ms total)
T1404 001:452 JLINK_IsHalted()  returns FALSE (0000ms, 0913ms total)
T1404 001:454 JLINK_IsHalted()  returns FALSE (0000ms, 0913ms total)
T1404 001:467 JLINK_IsHalted()  returns FALSE (0000ms, 0913ms total)
T1404 001:469 JLINK_IsHalted()  returns FALSE (0000ms, 0913ms total)
T1404 001:472 JLINK_IsHalted()  returns FALSE (0001ms, 0913ms total)
T1404 001:475 JLINK_IsHalted()  returns FALSE (0000ms, 0913ms total)
T1404 001:477 JLINK_IsHalted()  returns FALSE (0000ms, 0913ms total)
T1404 001:479 JLINK_IsHalted()  returns FALSE (0000ms, 0913ms total)
T1404 001:481 JLINK_IsHalted()  returns FALSE (0001ms, 0913ms total)
T1404 001:484 JLINK_IsHalted()  returns FALSE (0001ms, 0913ms total)
T1404 001:487 JLINK_IsHalted()  returns FALSE (0000ms, 0913ms total)
T1404 001:489 JLINK_IsHalted()  returns FALSE (0000ms, 0913ms total)
T1404 001:491 JLINK_IsHalted()  returns TRUE (0007ms, 0913ms total)
T1404 001:498 JLINK_ReadReg(R15)  returns 0x10000000 (0000ms, 0913ms total)
T1404 001:498 JLINK_ClrBPEx(BPHandle = 0x0000000A)  returns 0x00 (0000ms, 0913ms total)
T1404 001:498 JLINK_ReadReg(R0)  returns 0x00000000 (0001ms, 0913ms total)
T1404 001:499 JLINK_WriteReg(R0, 0x00005000)  returns 0x00 (0000ms, 0914ms total)
T1404 001:499 JLINK_WriteReg(R1, 0x00001000)  returns 0x00 (0000ms, 0914ms total)
T1404 001:499 JLINK_WriteReg(R2, 0x000000FF)  returns 0x00 (0000ms, 0914ms total)
T1404 001:499 JLINK_WriteReg(R3, 0x00000000)  returns 0x00 (0000ms, 0914ms total)
T1404 001:499 JLINK_WriteReg(R4, 0x00000000)  returns 0x00 (0000ms, 0914ms total)
T1404 001:499 JLINK_WriteReg(R5, 0x00000000)  returns 0x00 (0000ms, 0914ms total)
T1404 001:499 JLINK_WriteReg(R6, 0x00000000)  returns 0x00 (0000ms, 0914ms total)
T1404 001:499 JLINK_WriteReg(R7, 0x00000000)  returns 0x00 (0000ms, 0914ms total)
T1404 001:499 JLINK_WriteReg(R8, 0x00000000)  returns 0x00 (0000ms, 0914ms total)
T1404 001:499 JLINK_WriteReg(R9, 0x100001DC)  returns 0x00 (0000ms, 0914ms total)
T1404 001:499 JLINK_WriteReg(R10, 0x00000000)  returns 0x00 (0000ms, 0914ms total)
T1404 001:499 JLINK_WriteReg(R11, 0x00000000)  returns 0x00 (0001ms, 0914ms total)
T1404 001:500 JLINK_WriteReg(R12, 0x00000000)  returns 0x00 (0000ms, 0915ms total)
T1404 001:500 JLINK_WriteReg(R13, 0x10000800)  returns 0x00 (0000ms, 0915ms total)
T1404 001:500 JLINK_WriteReg(R14, 0x10000001)  returns 0x00 (0000ms, 0915ms total)
T1404 001:500 JLINK_WriteReg(R15, 0x10000020)  returns 0x00 (0000ms, 0915ms total)
T1404 001:500 JLINK_WriteReg(XPSR, 0x01000000)  returns 0x00 (0000ms, 0915ms total)
T1404 001:500 JLINK_WriteReg(MSP, 0x10000800)  returns 0x00 (0000ms, 0915ms total)
T1404 001:501 JLINK_WriteReg(PSP, 0x10000800)  returns 0x00 (0000ms, 0916ms total)
T1404 001:501 JLINK_WriteReg(CFBP, 0x00000000)  returns 0x00 (0000ms, 0916ms total)
T1404 001:501 JLINK_SetBPEx(Addr = 0x10000000, Type = 0xFFFFFFF2)  returns 0x0000000B (0000ms, 0916ms total)
T1404 001:501 JLINK_Go() -- CPU_WriteMem(4 bytes @ 0xE0002008) -- CPU_WriteMem(4 bytes @ 0xE000200C) -- CPU_WriteMem(4 bytes @ 0xE0002010) -- CPU_WriteMem(4 bytes @ 0xE0002014) -- CPU_WriteMem(4 bytes @ 0xE0002018) -- CPU_WriteMem(4 bytes @ 0xE000201C) (0008ms, 0916ms total)
T1404 001:509 JLINK_IsHalted()  returns TRUE (0008ms, 0924ms total)
T1404 001:518 JLINK_ReadReg(R15)  returns 0x10000000 (0000ms, 0924ms total)
T1404 001:518 JLINK_ClrBPEx(BPHandle = 0x0000000B)  returns 0x00 (0000ms, 0924ms total)
T1404 001:518 JLINK_ReadReg(R0)  returns 0x00000001 (0000ms, 0924ms total)
T1404 001:518 JLINK_WriteReg(R0, 0x00005000)  returns 0x00 (0000ms, 0924ms total)
T1404 001:518 JLINK_WriteReg(R1, 0x00001000)  returns 0x00 (0000ms, 0924ms total)
T1404 001:518 JLINK_WriteReg(R2, 0x000000FF)  returns 0x00 (0000ms, 0924ms total)
T1404 001:518 JLINK_WriteReg(R3, 0x00000000)  returns 0x00 (0000ms, 0924ms total)
T1404 001:518 JLINK_WriteReg(R4, 0x00000000)  returns 0x00 (0000ms, 0924ms total)
T1404 001:518 JLINK_WriteReg(R5, 0x00000000)  returns 0x00 (0000ms, 0924ms total)
T1404 001:518 JLINK_WriteReg(R6, 0x00000000)  returns 0x00 (0000ms, 0924ms total)
T1404 001:518 JLINK_WriteReg(R7, 0x00000000)  returns 0x00 (0000ms, 0924ms total)
T1404 001:518 JLINK_WriteReg(R8, 0x00000000)  returns 0x00 (0000ms, 0924ms total)
T1404 001:518 JLINK_WriteReg(R9, 0x100001DC)  returns 0x00 (0000ms, 0924ms total)
T1404 001:518 JLINK_WriteReg(R10, 0x00000000)  returns 0x00 (0000ms, 0924ms total)
T1404 001:518 JLINK_WriteReg(R11, 0x00000000)  returns 0x00 (0000ms, 0924ms total)
T1404 001:518 JLINK_WriteReg(R12, 0x00000000)  returns 0x00 (0000ms, 0924ms total)
T1404 001:518 JLINK_WriteReg(R13, 0x10000800)  returns 0x00 (0000ms, 0924ms total)
T1404 001:518 JLINK_WriteReg(R14, 0x10000001)  returns 0x00 (0000ms, 0924ms total)
T1404 001:518 JLINK_WriteReg(R15, 0x10000110)  returns 0x00 (0000ms, 0924ms total)
T1404 001:518 JLINK_WriteReg(XPSR, 0x01000000)  returns 0x00 (0000ms, 0924ms total)
T1404 001:518 JLINK_WriteReg(MSP, 0x10000800)  returns 0x00 (0000ms, 0924ms total)
T1404 001:518 JLINK_WriteReg(PSP, 0x10000800)  returns 0x00 (0000ms, 0924ms total)
T1404 001:518 JLINK_WriteReg(CFBP, 0x00000000)  returns 0x00 (0000ms, 0924ms total)
T1404 001:518 JLINK_SetBPEx(Addr = 0x10000000, Type = 0xFFFFFFF2)  returns 0x0000000C (0000ms, 0924ms total)
T1404 001:518 JLINK_Go() -- CPU_WriteMem(4 bytes @ 0xE0002008) -- CPU_WriteMem(4 bytes @ 0xE000200C) -- CPU_WriteMem(4 bytes @ 0xE0002010) -- CPU_WriteMem(4 bytes @ 0xE0002014) -- CPU_WriteMem(4 bytes @ 0xE0002018) -- CPU_WriteMem(4 bytes @ 0xE000201C) (0008ms, 0924ms total)
T1404 001:526 JLINK_IsHalted()  returns FALSE (0001ms, 0932ms total)
T1404 001:529 JLINK_IsHalted()  returns FALSE (0000ms, 0932ms total)
T1404 001:531 JLINK_IsHalted()  returns FALSE (0000ms, 0932ms total)
T1404 001:533 JLINK_IsHalted()  returns FALSE (0001ms, 0932ms total)
T1404 001:535 JLINK_IsHalted()  returns FALSE (0001ms, 0932ms total)
T1404 001:538 JLINK_IsHalted()  returns FALSE (0000ms, 0932ms total)
T1404 001:540 JLINK_IsHalted()  returns FALSE (0000ms, 0932ms total)
T1404 001:542 JLINK_IsHalted()  returns FALSE (0000ms, 0932ms total)
T1404 001:544 JLINK_IsHalted()  returns FALSE (0000ms, 0932ms total)
T1404 001:546 JLINK_IsHalted()  returns FALSE (0000ms, 0932ms total)
T1404 001:548 JLINK_IsHalted()  returns FALSE (0000ms, 0932ms total)
T1404 001:550 JLINK_IsHalted()  returns FALSE (0000ms, 0932ms total)
T1404 001:552 JLINK_IsHalted()  returns FALSE (0000ms, 0932ms total)
T1404 001:554 JLINK_IsHalted()  returns FALSE (0000ms, 0932ms total)
T1404 001:556 JLINK_IsHalted()  returns FALSE (0000ms, 0932ms total)
T1404 001:558 JLINK_IsHalted()  returns FALSE (0000ms, 0932ms total)
T1404 001:560 JLINK_IsHalted()  returns FALSE (0000ms, 0932ms total)
T1404 001:562 JLINK_IsHalted()  returns FALSE (0000ms, 0932ms total)
T1404 001:572 JLINK_IsHalted()  returns FALSE (0000ms, 0932ms total)
T1404 001:574 JLINK_IsHalted()  returns FALSE (0000ms, 0932ms total)
T1404 001:576 JLINK_IsHalted()  returns FALSE (0000ms, 0932ms total)
T1404 001:578 JLINK_IsHalted()  returns FALSE (0000ms, 0932ms total)
T1404 001:581 JLINK_IsHalted()  returns FALSE (0001ms, 0932ms total)
T1404 001:584 JLINK_IsHalted()  returns FALSE (0000ms, 0932ms total)
T1404 001:586 JLINK_IsHalted()  returns FALSE (0000ms, 0932ms total)
T1404 001:588 JLINK_IsHalted()  returns FALSE (0000ms, 0932ms total)
T1404 001:590 JLINK_IsHalted()  returns FALSE (0000ms, 0932ms total)
T1404 001:592 JLINK_IsHalted()  returns FALSE (0000ms, 0932ms total)
T1404 001:594 JLINK_IsHalted()  returns FALSE (0002ms, 0932ms total)
T1404 001:598 JLINK_IsHalted()  returns FALSE (0000ms, 0932ms total)
T1404 001:600 JLINK_IsHalted()  returns FALSE (0000ms, 0932ms total)
T1404 001:602 JLINK_IsHalted()  returns FALSE (0000ms, 0932ms total)
T1404 001:604 JLINK_IsHalted()  returns FALSE (0000ms, 0932ms total)
T1404 001:606 JLINK_IsHalted()  returns FALSE (0000ms, 0932ms total)
T1404 001:608 JLINK_IsHalted()  returns FALSE (0000ms, 0932ms total)
T1404 001:610 JLINK_IsHalted()  returns FALSE (0001ms, 0932ms total)
T1404 001:615 JLINK_IsHalted()  returns FALSE (0000ms, 0932ms total)
T1404 001:617 JLINK_IsHalted()  returns FALSE (0000ms, 0932ms total)
T1404 001:619 JLINK_IsHalted()  returns FALSE (0000ms, 0932ms total)
T1404 001:621 JLINK_IsHalted()  returns FALSE (0000ms, 0932ms total)
T1404 001:623 JLINK_IsHalted()  returns FALSE (0000ms, 0932ms total)
T1404 001:625 JLINK_IsHalted()  returns FALSE (0000ms, 0932ms total)
T1404 001:627 JLINK_IsHalted()  returns TRUE (0007ms, 0932ms total)
T1404 001:634 JLINK_ReadReg(R15)  returns 0x10000000 (0000ms, 0932ms total)
T1404 001:634 JLINK_ClrBPEx(BPHandle = 0x0000000C)  returns 0x00 (0000ms, 0932ms total)
T1404 001:634 JLINK_ReadReg(R0)  returns 0x00000000 (0000ms, 0932ms total)
T1404 001:635 JLINK_WriteReg(R0, 0x00006000)  returns 0x00 (0000ms, 0933ms total)
T1404 001:635 JLINK_WriteReg(R1, 0x00001000)  returns 0x00 (0000ms, 0933ms total)
T1404 001:635 JLINK_WriteReg(R2, 0x000000FF)  returns 0x00 (0000ms, 0933ms total)
T1404 001:635 JLINK_WriteReg(R3, 0x00000000)  returns 0x00 (0000ms, 0933ms total)
T1404 001:635 JLINK_WriteReg(R4, 0x00000000)  returns 0x00 (0000ms, 0933ms total)
T1404 001:635 JLINK_WriteReg(R5, 0x00000000)  returns 0x00 (0000ms, 0933ms total)
T1404 001:635 JLINK_WriteReg(R6, 0x00000000)  returns 0x00 (0000ms, 0933ms total)
T1404 001:635 JLINK_WriteReg(R7, 0x00000000)  returns 0x00 (0000ms, 0933ms total)
T1404 001:635 JLINK_WriteReg(R8, 0x00000000)  returns 0x00 (0000ms, 0933ms total)
T1404 001:635 JLINK_WriteReg(R9, 0x100001DC)  returns 0x00 (0000ms, 0933ms total)
T1404 001:635 JLINK_WriteReg(R10, 0x00000000)  returns 0x00 (0000ms, 0933ms total)
T1404 001:635 JLINK_WriteReg(R11, 0x00000000)  returns 0x00 (0001ms, 0933ms total)
T1404 001:636 JLINK_WriteReg(R12, 0x00000000)  returns 0x00 (0000ms, 0934ms total)
T1404 001:636 JLINK_WriteReg(R13, 0x10000800)  returns 0x00 (0000ms, 0934ms total)
T1404 001:636 JLINK_WriteReg(R14, 0x10000001)  returns 0x00 (0000ms, 0934ms total)
T1404 001:636 JLINK_WriteReg(R15, 0x10000020)  returns 0x00 (0000ms, 0934ms total)
T1404 001:636 JLINK_WriteReg(XPSR, 0x01000000)  returns 0x00 (0000ms, 0934ms total)
T1404 001:636 JLINK_WriteReg(MSP, 0x10000800)  returns 0x00 (0000ms, 0934ms total)
T1404 001:636 JLINK_WriteReg(PSP, 0x10000800)  returns 0x00 (0000ms, 0934ms total)
T1404 001:636 JLINK_WriteReg(CFBP, 0x00000000)  returns 0x00 (0000ms, 0934ms total)
T1404 001:636 JLINK_SetBPEx(Addr = 0x10000000, Type = 0xFFFFFFF2)  returns 0x0000000D (0000ms, 0934ms total)
